Using: /apps/EDAs/synopsys/hspice/hspice/linux/hspice  -i RLC_s3.sp
 ****** HSPICE -- F-2011.09-SP1 32-BIT (Nov 18 2011) linux ******               
  Copyright (C) 2011 Synopsys, Inc. All Rights Reserved.                        
  Unpublished-rights reserved under US copyright laws.
  This program is protected by law and is subject to the
  terms and conditions of the license agreement from Synopsys.
  Use of this program is your acceptance to be bound by the
  license agreement. HSPICE is the trademark of Synopsys, Inc.
  Input File: RLC_s3.sp                                                         
  Command line options: -i RLC_s3.sp
 lic:  
 lic: FLEXlm: v10.8 
 lic: USER:   smic2009             HOSTNAME: dellr900d 
 lic: HOSTID: 0024e85bca9e         PID:      20533 
 lic: Using FLEXlm license file: 
 lic: 5280@su16 
 lic: Checkout 1 hspice 
 lic: License/Maintenance for hspice will expire on 24-mar-2013/2011.09 
 lic: 1(in_use)/140(total) FLOATING license(s) on SERVER su16 
 lic:   
 Init: read install configuration file: /apps/EDAs/synopsys/hspice/hspice/meta.cfg
1****** HSPICE -- F-2011.09-SP1 32-BIT (Nov 18 2011) linux ******               
 ******  
 * example rlc-3

  ******  circuit name directory
 circuit number to circuit name directory
   number circuitname                     definition         multiplier
        0 main circuit
        1 x1.                             seg                1.00 
        2 x2.                             seg                1.00 
        3 x3.                             seg                1.00 
  **info** (RLC_s3.sp:4) DC voltage reset to initial transient source value              in source        0:vin                 new dc=  0.0000D+00
  
      
 *****************************************************************
 ******  option summary
 ******
 runlvl  = 3         bypass  = 2         

 **info** rebuilding matrix with pivot option

1****** HSPICE -- F-2011.09-SP1 32-BIT (Nov 18 2011) linux ******               
 ******  
 * example rlc-3

  ******  operating point information tnom=  25.000 temp=  25.000 *****
 ***** operating point status is voltage   simulation time is     0.     
    node    =voltage      node    =voltage      node    =voltage

 +0:n_in1   =   0.      0:n_in2   =   0.      0:n_in3   =   0.     
 +0:n_out   =   0.      1:n_1     =   0.      2:n_1     =   0.     
 +3:n_1     =   0.     

 ******  
 * example rlc-3

  ******  transient analysis tnom=  25.000 temp=  25.000 *****
x

        time    voltage      voltage    
                   n_out        n_in1   
    0.            0.           0.       
    4.00000u      0.          15.0796m  
    8.00000u      0.          30.1582m  
   12.00000u      0.          45.2365m  
   16.00000u     51.7480n     60.3131m  
   20.00000u    421.3763n     75.3796m  
   24.00000u    791.0046n     90.4461m  
   28.00000u      1.1606u    105.5127m  
   32.00000u      1.5303u    120.5792m  
   36.00000u      1.8999u    135.6457m  
   40.00000u      2.2695u    150.7122m  
   44.00000u      2.6391u    165.7788m  
   48.00000u      3.0088u    180.8453m  
   52.00000u     77.7947u    195.8184m  
   56.00000u    156.6625u    210.7865m  
   60.00000u    235.5303u    225.7545m  
   64.00000u    314.3981u    240.7226m  
   68.00000u    393.2660u    255.6906m  
   72.00000u    472.1338u    270.6587m  
   76.00000u    551.0016u    285.6267m  
   80.00000u    629.8694u    300.5947m  
   84.00000u    708.7372u    315.5628m  
   88.00000u    787.6050u    330.5308m  
   92.00000u    866.4729u    345.4989m  
   96.00000u    945.3407u    360.4669m  
  100.00000u      1.0242m    375.4350m  
  104.00000u      1.1031m    390.4030m  
  108.00000u      1.1819m    405.3710m  
  112.00000u      1.2608m    420.3391m  
  116.00000u      1.3397m    435.3071m  
  120.00000u      1.4185m    450.2752m  
  124.00000u      1.4974m    465.2432m  
  128.00000u      1.5763m    480.2112m  
  132.00000u      1.6552m    495.1793m  
  136.00000u      1.7340m    510.1473m  
  140.00000u      2.0124m    525.0016m  
  144.00000u      2.6035m    539.6775m  
  148.00000u      3.1946m    554.3534m  
  152.00000u      3.7857m    569.0294m  
  156.00000u      4.3768m    583.7053m  
  160.00000u      4.9679m    598.3812m  
  164.00000u      5.5590m    613.0572m  
  168.00000u      6.1501m    627.7331m  
  172.00000u      6.7412m    642.4090m  
  176.00000u      7.3323m    657.0849m  
  180.00000u      7.9234m    671.7609m  
  184.00000u      8.5145m    686.4368m  
  188.00000u      9.1056m    701.1127m  
  192.00000u      9.6967m    715.7887m  
  196.00000u     10.2877m    730.4646m  
  200.00000u     10.8788m    745.1405m  
  204.00000u     11.4699m    759.8165m  
  208.00000u     12.0610m    774.4924m  
  212.00000u     12.6521m    789.1683m  
  216.00000u     13.2432m    803.8442m  
  220.00000u     13.8343m    818.5202m  
  224.00000u     14.4254m    833.1961m  
  228.00000u     15.4960m    847.7477m  
  232.00000u     18.3607m    861.8342m  
  236.00000u     21.2254m    875.9207m  
  240.00000u     24.0901m    890.0071m  
  244.00000u     26.9547m    904.0936m  
  248.00000u     29.8194m    918.1801m  
  252.00000u     32.6841m    932.2665m  
  256.00000u     35.5488m    946.3530m  
  260.00000u     38.4135m    960.4395m  
  264.00000u     41.2782m    974.5259m  
  268.00000u     44.1429m    988.6124m  
  272.00000u     47.0076m      1.0027   
  276.00000u     49.8722m      1.0168   
  280.00000u     52.7369m      1.0309   
  284.00000u     55.6016m      1.0450   
  288.00000u     58.4663m      1.0590   
  292.00000u     61.3310m      1.0731   
  296.00000u     64.1957m      1.0872   
  300.00000u     67.0604m      1.1013   
  304.00000u     69.9250m      1.1154   
  308.00000u     72.7897m      1.1295   
  312.00000u     75.6544m      1.1436   
  316.00000u     78.5191m      1.1576   
  320.00000u     81.3838m      1.1717   
  324.00000u     84.2485m      1.1858   
  328.00000u     87.1132m      1.1999   
  332.00000u     89.9779m      1.2140   
  336.00000u     92.8425m      1.2281   
  340.00000u     95.7072m      1.2422   
  344.00000u     98.5719m      1.2563   
  348.00000u    101.4366m      1.2703   
  352.00000u    106.7915m      1.2839   
  356.00000u    113.7592m      1.2972   
  360.00000u    120.7268m      1.3104   
  364.00000u    127.6945m      1.3237   
  368.00000u    134.6622m      1.3369   
  372.00000u    141.6298m      1.3502   
  376.00000u    148.5975m      1.3634   
  380.00000u    155.5652m      1.3767   
  384.00000u    162.5328m      1.3899   
  388.00000u    169.5005m      1.4031   
  392.00000u    176.4682m      1.4164   
  396.00000u    183.4358m      1.4296   
  400.00000u    190.4035m      1.4429   
  404.00000u    197.3712m      1.4561   
  408.00000u    204.3388m      1.4694   
  412.00000u    211.3065m      1.4826   
  416.00000u    218.2742m      1.4959   
  420.00000u    225.2418m      1.5091   
  424.00000u    232.2095m      1.5224   
  428.00000u    239.1772m      1.5356   
  432.00000u    246.1448m      1.5489   
  436.00000u    253.1125m      1.5621   
  440.00000u    260.0802m      1.5754   
  444.00000u    269.9936m      1.5880   
  448.00000u    281.7029m      1.6002   
  452.00000u    293.4123m      1.6125   
  456.00000u    305.1217m      1.6247   
  460.00000u    316.8311m      1.6369   
  464.00000u    328.5405m      1.6492   
  468.00000u    340.2498m      1.6614   
  472.00000u    351.9592m      1.6736   
  476.00000u    363.6686m      1.6859   
  480.00000u    375.3780m      1.6981   
  484.00000u    387.0873m      1.7103   
  488.00000u    398.7967m      1.7226   
  492.00000u    410.5061m      1.7348   
  496.00000u    422.2155m      1.7470   
  500.00000u    433.9249m      1.7593   
  504.00000u    445.6342m      1.7715   
  508.00000u    457.3436m      1.7837   
  512.00000u    469.0530m      1.7960   
  516.00000u    480.7624m      1.8082   
  520.00000u    492.4718m      1.8204   
  524.00000u    504.1811m      1.8327   
  528.00000u    515.8905m      1.8449   
  532.00000u    527.5999m      1.8571   
  536.00000u    539.3093m      1.8694   
  540.00000u    551.0186m      1.8816   
  544.00000u    562.7280m      1.8938   
  548.00000u    574.4374m      1.9061   
  552.00000u    587.4940m      1.9178   
  556.00000u    602.7641m      1.9288   
  560.00000u    618.0342m      1.9397   
  564.00000u    633.3044m      1.9506   
  568.00000u    648.5745m      1.9616   
  572.00000u    663.8446m      1.9725   
  576.00000u    679.1147m      1.9835   
  580.00000u    694.3848m      1.9944   
  584.00000u    709.6549m      2.0053   
  588.00000u    724.9251m      2.0163   
  592.00000u    740.1952m      2.0272   
  596.00000u    755.4653m      2.0382   
  600.00000u    770.7354m      2.0491   
  604.00000u    786.0055m      2.0600   
  608.00000u    801.2757m      2.0710   
  612.00000u    816.5458m      2.0819   
  616.00000u    831.8159m      2.0929   
  620.00000u    847.0860m      2.1038   
  624.00000u    862.3561m      2.1147   
  628.00000u    877.6262m      2.1257   
  632.00000u    892.8964m      2.1366   
  636.00000u    908.1665m      2.1476   
  640.00000u    923.4366m      2.1585   
  644.00000u    938.7067m      2.1694   
  648.00000u    953.9768m      2.1804   
  652.00000u    969.2470m      2.1913   
  656.00000u    984.5171m      2.2023   
  660.00000u      1.0006       2.2120   
  664.00000u      1.0169       2.2215   
  668.00000u      1.0331       2.2311   
  672.00000u      1.0493       2.2406   
  676.00000u      1.0655       2.2502   
  680.00000u      1.0818       2.2598   
  684.00000u      1.0980       2.2693   
  688.00000u      1.1142       2.2789   
  692.00000u      1.1304       2.2884   
  696.00000u      1.1466       2.2980   
  700.00000u      1.1629       2.3076   
  704.00000u      1.1791       2.3171   
  708.00000u      1.1953       2.3267   
  712.00000u      1.2115       2.3362   
  716.00000u      1.2277       2.3458   
  720.00000u      1.2440       2.3554   
  724.00000u      1.2602       2.3649   
  728.00000u      1.2764       2.3745   
  732.00000u      1.2926       2.3840   
  736.00000u      1.3089       2.3936   
  740.00000u      1.3251       2.4032   
  744.00000u      1.3413       2.4127   
  748.00000u      1.3575       2.4223   
  752.00000u      1.3734       2.4313   
  756.00000u      1.3891       2.4397   
  760.00000u      1.4047       2.4481   
  764.00000u      1.4203       2.4565   
  768.00000u      1.4360       2.4649   
  772.00000u      1.4516       2.4733   
  776.00000u      1.4672       2.4817   
  780.00000u      1.4829       2.4901   
  784.00000u      1.4985       2.4985   
  788.00000u      1.5141       2.5069   
  792.00000u      1.5298       2.5154   
  796.00000u      1.5454       2.5238   
  800.00000u      1.5610       2.5322   
  804.00000u      1.5767       2.5406   
  808.00000u      1.5923       2.5490   
  812.00000u      1.6078       2.5567   
  816.00000u      1.6233       2.5644   
  820.00000u      1.6388       2.5720   
  824.00000u      1.6543       2.5797   
  828.00000u      1.6698       2.5874   
  832.00000u      1.6853       2.5950   
  836.00000u      1.7009       2.6027   
  840.00000u      1.7164       2.6104   
  844.00000u      1.7318       2.6177   
  848.00000u      1.7469       2.6241   
  852.00000u      1.7619       2.6306   
  856.00000u      1.7770       2.6370   
  860.00000u      1.7921       2.6435   
  864.00000u      1.8072       2.6499   
  868.00000u      1.8223       2.6563   
  872.00000u      1.8374       2.6628   
  876.00000u      1.8525       2.6692   
  880.00000u      1.8676       2.6757   
  884.00000u      1.8827       2.6821   
  888.00000u      1.8977       2.6885   
  892.00000u      1.9128       2.6950   
  896.00000u      1.9279       2.7014   
  900.00000u      1.9430       2.7079   
  904.00000u      1.9581       2.7143   
  908.00000u      1.9732       2.7207   
  912.00000u      1.9883       2.7272   
  916.00000u      2.0034       2.7336   
  920.00000u      2.0185       2.7400   
  924.00000u      2.0335       2.7465   
  928.00000u      2.0486       2.7529   
  932.00000u      2.0637       2.7594   
  936.00000u      2.0788       2.7658   
  940.00000u      2.0939       2.7722   
  944.00000u      2.1090       2.7787   
  948.00000u      2.1241       2.7851   
  952.00000u      2.1392       2.7916   
  956.00000u      2.1539       2.7971   
  960.00000u      2.1681       2.8015   
  964.00000u      2.1823       2.8059   
  968.00000u      2.1966       2.8103   
  972.00000u      2.2108       2.8146   
  976.00000u      2.2250       2.8190   
  980.00000u      2.2392       2.8234   
  984.00000u      2.2534       2.8278   
  988.00000u      2.2677       2.8321   
  992.00000u      2.2819       2.8365   
  996.00000u      2.2961       2.8409   
    1.00000m      2.3103       2.8453   
    1.00400m      2.3245       2.8497   
    1.00800m      2.3388       2.8540   
    1.01200m      2.3530       2.8584   
    1.01600m      2.3672       2.8628   
    1.02000m      2.3814       2.8672   
    1.02400m      2.3956       2.8716   
    1.02800m      2.4099       2.8759   
    1.03200m      2.4241       2.8803   
    1.03600m      2.4383       2.8847   
    1.04000m      2.4525       2.8891   
    1.04400m      2.4667       2.8935   
    1.04800m      2.4810       2.8978   
    1.05200m      2.4952       2.9022   
    1.05600m      2.5094       2.9066   
    1.06000m      2.5236       2.9110   
    1.06400m      2.5378       2.9154   
    1.06800m      2.5521       2.9197   
    1.07200m      2.5663       2.9241   
    1.07600m      2.5805       2.9285   
    1.08000m      2.5929       2.9308   
    1.08400m      2.6052       2.9328   
    1.08800m      2.6175       2.9349   
    1.09200m      2.6298       2.9370   
    1.09600m      2.6421       2.9391   
    1.10000m      2.6544       2.9412   
    1.10400m      2.6667       2.9433   
    1.10800m      2.6789       2.9454   
    1.11200m      2.6912       2.9475   
    1.11600m      2.7035       2.9496   
    1.12000m      2.7158       2.9517   
    1.12400m      2.7281       2.9538   
    1.12800m      2.7404       2.9559   
    1.13200m      2.7527       2.9580   
    1.13600m      2.7650       2.9601   
    1.14000m      2.7772       2.9622   
    1.14400m      2.7895       2.9643   
    1.14800m      2.8018       2.9664   
    1.15200m      2.8141       2.9685   
    1.15600m      2.8264       2.9706   
    1.16000m      2.8387       2.9727   
    1.16400m      2.8510       2.9747   
    1.16800m      2.8633       2.9768   
    1.17200m      2.8755       2.9789   
    1.17600m      2.8878       2.9810   
    1.18000m      2.9001       2.9831   
    1.18400m      2.9124       2.9852   
    1.18800m      2.9247       2.9873   
    1.19200m      2.9370       2.9894   
    1.19600m      2.9493       2.9915   
    1.20000m      2.9616       2.9936   
    1.20400m      2.9726       2.9947   
    1.20800m      2.9828       2.9952   
    1.21200m      2.9930       2.9956   
    1.21600m      3.0031       2.9961   
    1.22000m      3.0133       2.9966   
    1.22400m      3.0235       2.9970   
    1.22800m      3.0337       2.9975   
    1.23200m      3.0439       2.9979   
    1.23600m      3.0541       2.9984   
    1.24000m      3.0642       2.9989   
    1.24400m      3.0744       2.9993   
    1.24800m      3.0846       2.9998   
    1.25200m      3.0931       2.9996   
    1.25600m      3.1000       2.9989   
    1.26000m      3.1069       2.9982   
    1.26400m      3.1137       2.9974   
    1.26800m      3.1206       2.9967   
    1.27200m      3.1275       2.9960   
    1.27600m      3.1344       2.9952   
    1.28000m      3.1412       2.9945   
    1.28400m      3.1481       2.9938   
    1.28800m      3.1550       2.9930   
    1.29200m      3.1619       2.9923   
    1.29600m      3.1687       2.9916   
    1.30000m      3.1756       2.9908   
    1.30400m      3.1825       2.9901   
    1.30800m      3.1894       2.9894   
    1.31200m      3.1962       2.9886   
    1.31600m      3.2031       2.9879   
    1.32000m      3.2100       2.9872   
    1.32400m      3.2169       2.9864   
    1.32800m      3.2237       2.9856   
    1.33200m      3.2301       2.9838   
    1.33600m      3.2365       2.9821   
    1.34000m      3.2429       2.9804   
    1.34400m      3.2493       2.9786   
    1.34800m      3.2557       2.9769   
    1.35200m      3.2621       2.9752   
    1.35600m      3.2684       2.9734   
    1.36000m      3.2728       2.9705   
    1.36400m      3.2773       2.9677   
    1.36800m      3.2818       2.9648   
    1.37200m      3.2863       2.9620   
    1.37600m      3.2908       2.9591   
    1.38000m      3.2953       2.9563   
    1.38400m      3.2998       2.9535   
    1.38800m      3.3043       2.9506   
    1.39200m      3.3088       2.9478   
    1.39600m      3.3133       2.9449   
    1.40000m      3.3178       2.9421   
    1.40400m      3.3222       2.9392   
    1.40800m      3.3267       2.9364   
    1.41200m      3.3312       2.9336   
    1.41600m      3.3357       2.9307   
    1.42000m      3.3402       2.9279   
    1.42400m      3.3447       2.9250   
    1.42800m      3.3492       2.9222   
    1.43200m      3.3537       2.9193   
    1.43600m      3.3582       2.9165   
    1.44000m      3.3627       2.9137   
    1.44400m      3.3672       2.9108   
    1.44800m      3.3704       2.9072   
    1.45200m      3.3718       2.9025   
    1.45600m      3.3732       2.8978   
    1.46000m      3.3746       2.8930   
    1.46400m      3.3761       2.8883   
    1.46800m      3.3775       2.8836   
    1.47200m      3.3789       2.8789   
    1.47600m      3.3803       2.8742   
    1.48000m      3.3817       2.8695   
    1.48400m      3.3832       2.8648   
    1.48800m      3.3846       2.8600   
    1.49200m      3.3860       2.8553   
    1.49600m      3.3874       2.8506   
    1.50000m      3.3889       2.8459   
    1.50400m      3.3903       2.8412   
    1.50800m      3.3917       2.8365   
    1.51200m      3.3931       2.8317   
    1.51600m      3.3945       2.8270   
    1.52000m      3.3960       2.8223   
    1.52400m      3.3974       2.8176   
    1.52800m      3.3988       2.8129   
    1.53200m      3.4002       2.8082   
    1.53600m      3.4016       2.8035   
    1.54000m      3.4031       2.7987   
    1.54400m      3.4045       2.7940   
    1.54800m      3.4059       2.7893   
    1.55200m      3.4073       2.7846   
    1.55600m      3.4088       2.7799   
    1.56000m      3.4102       2.7752   
    1.56400m      3.4084       2.7683   
    1.56800m      3.4064       2.7613   
    1.57200m      3.4044       2.7544   
    1.57600m      3.4024       2.7474   
    1.58000m      3.4005       2.7404   
    1.58400m      3.3985       2.7334   
    1.58800m      3.3965       2.7264   
    1.59200m      3.3945       2.7194   
    1.59600m      3.3925       2.7125   
    1.60000m      3.3905       2.7055   
    1.60400m      3.3885       2.6985   
    1.60800m      3.3865       2.6915   
    1.61200m      3.3845       2.6845   
    1.61600m      3.3825       2.6775   
    1.62000m      3.3806       2.6706   
    1.62400m      3.3786       2.6636   
    1.62800m      3.3766       2.6566   
    1.63200m      3.3746       2.6496   
    1.63600m      3.3726       2.6426   
    1.64000m      3.3706       2.6356   
    1.64400m      3.3686       2.6287   
    1.64800m      3.3666       2.6217   
    1.65200m      3.3646       2.6147   
    1.65600m      3.3626       2.6077   
    1.66000m      3.3606       2.6007   
    1.66400m      3.3587       2.5937   
    1.66800m      3.3567       2.5868   
    1.67200m      3.3547       2.5798   
    1.67600m      3.3527       2.5728   
    1.68000m      3.3507       2.5658   
    1.68400m      3.3487       2.5588   
    1.68800m      3.3467       2.5518   
    1.69200m      3.3447       2.5449   
    1.69600m      3.3427       2.5379   
